T2BC0 000:021.955   SEGGER J-Link V6.70e Log File
T2BC0 000:022.123   DLL Compiled: Apr 17 2020 17:55:05
T2BC0 000:022.150   Logging started @ 2020-12-18 00:07
T2BC0 000:022.163 JLINK_SetWarnOutHandler(...)
T2BC0 000:022.174 - 0.015ms
T2BC0 000:022.188 JLINK_OpenEx(...)
T2BC0 000:026.410   Firmware: J-Link V9 compiled Dec 13 2019 11:14:50
T2BC0 000:026.662   Decompressing FW timestamp took 189 us
T2BC0 000:032.482   Hardware: V9.60
T2BC0 000:032.509   S/N: 69660473
T2BC0 000:032.521   OEM: SEGGER
T2BC0 000:032.534   Feature(s): RDI, GDB, FlashDL, FlashBP, JFlash
T2BC0 000:033.543   TELNET listener socket opened on port 19021
T2BC0 000:033.789   WEBSRV Starting webserver
T2BC0 000:033.871   WEBSRV Failed to put socket into listener state (port 19080)
T2BC0 000:033.996   WEBSRV Webserver running on local port 19081
T2BC0 000:034.012 - 11.828ms returns "O.K."
T2BC0 000:034.047 JLINK_GetEmuCaps()
T2BC0 000:034.060 - 0.018ms returns 0xB9FF7BBF
T2BC0 000:034.076 JLINK_TIF_GetAvailable(...)
T2BC0 000:034.207 - 0.160ms
T2BC0 000:034.250 JLINK_SetErrorOutHandler(...)
T2BC0 000:034.259 - 0.031ms
T2BC0 000:034.307 JLINK_ExecCommand("ProjectFile = "C:\Users\jason\MyStm32\Project\HY_STM32\Program\MDK\JLinkSettings.ini"", ...). 
T2BC0 000:045.666 - 11.382ms returns 0x00
T2BC0 000:045.717 JLINK_ExecCommand("Device = STM32F103VE", ...). 
T2BC0 000:048.564   Device "STM32F103VE" selected.
T2BC0 000:049.104 - 3.379ms returns 0x00
T2BC0 000:049.133 JLINK_ExecCommand("DisableConnectionTimeout", ...). 
T2BC0 000:049.149 - 0.008ms returns 0x01
T2BC0 000:049.162 JLINK_GetHardwareVersion()
T2BC0 000:049.171 - 0.013ms returns 0x17700
T2BC0 000:049.182 JLINK_GetDLLVersion()  returns 67005
T2BC0 000:049.216 JLINK_GetFirmwareString(...)
T2BC0 000:049.225 - 0.012ms
T2BC0 000:049.259 JLINK_GetDLLVersion()  returns 67005
T2BC0 000:049.271 JLINK_GetCompileDateTime()
T2BC0 000:049.279 - 0.012ms
T2BC0 000:049.297 JLINK_GetFirmwareString(...)
T2BC0 000:049.306 - 0.012ms
T2BC0 000:049.322 JLINK_GetHardwareVersion()
T2BC0 000:049.331 - 0.012ms returns 0x17700
T2BC0 000:049.368 JLINK_TIF_Select(JLINKARM_TIF_JTAG)
T2BC0 000:050.081 - 0.725ms returns 0x00
T2BC0 000:050.133 JLINK_SetSpeed(5000)
T2BC0 000:050.203 - 0.079ms
T2BC0 000:050.222 JLINK_GetIdData(pIdData)
T2BC0 000:051.418   TotalIRLen = 9, IRPrint = 0x0011
T2BC0 000:051.795   JTAG chain detection found 2 devices:
T2BC0 000:051.836    #0 Id: 0x3BA00477, IRLen: 04, CoreSight JTAG-DP
T2BC0 000:051.854    #1 Id: 0x06414041, IRLen: 05, STM32 Boundary Scan
T2BC0 000:057.492   TotalIRLen = 9, IRPrint = 0x0011
T2BC0 000:058.030   JTAG chain detection found 2 devices:
T2BC0 000:058.064    #0 Id: 0x3BA00477, IRLen: 04, CoreSight JTAG-DP
T2BC0 000:058.083    #1 Id: 0x06414041, IRLen: 05, STM32 Boundary Scan
T2BC0 000:059.067   Old FW that does not support reading DPIDR via DAP jobs
T2BC0 000:059.635   Unknown DP version. Assuming DPv0
T2BC0 000:059.685   Scanning AP map to find all available APs
T2BC0 000:060.174   AP[1]: Stopped AP scan as end of AP map has been reached
T2BC0 000:060.202   AP[0]: AHB-AP (IDR: 0x14770011)
T2BC0 000:060.220   Iterating through AP map to find AHB-AP to use
T2BC0 000:060.985   AP[0]: Core found
T2BC0 000:061.011   AP[0]: AHB-AP ROM base: 0xE00FF000
T2BC0 000:061.433   CPUID register: 0x411FC231. Implementer code: 0x41 (ARM)
T2BC0 000:061.458   Found Cortex-M3 r1p1, Little endian.
T2BC0 000:061.802    -- Max. mem block: 0x00010BD0
T2BC0 000:061.834   CPU_ReadMem(4 bytes @ 0xE000EDF0)
T2BC0 000:063.026   CPU_WriteMem(4 bytes @ 0xE000EDF0)
T2BC0 000:063.277   CPU_ReadMem(4 bytes @ 0xE0002000)
T2BC0 000:063.620   FPUnit: 6 code (BP) slots and 2 literal slots
T2BC0 000:063.638   CPU_ReadMem(4 bytes @ 0xE000EDFC)
T2BC0 000:063.974   CPU_WriteMem(4 bytes @ 0xE000EDFC)
T2BC0 000:064.225   CPU_ReadMem(4 bytes @ 0xE0001000)
T2BC0 000:064.530   CPU_WriteMem(4 bytes @ 0xE0001000)
T2BC0 000:064.779   CPU_ReadMem(4 bytes @ 0xE000ED88)
T2BC0 000:065.080   CPU_WriteMem(4 bytes @ 0xE000ED88)
T2BC0 000:065.336   CPU_ReadMem(4 bytes @ 0xE000ED88)
T2BC0 000:065.678   CPU_WriteMem(4 bytes @ 0xE000ED88)
T2BC0 000:065.963   CoreSight components:
T2BC0 000:066.009   ROMTbl[0] @ E00FF000
T2BC0 000:066.040   CPU_ReadMem(64 bytes @ 0xE00FF000)
T2BC0 000:066.539   CPU_ReadMem(32 bytes @ 0xE000EFE0)
T2BC0 000:066.968   ROMTbl[0][0]: E000E000, CID: B105E00D, PID: 001BB000 SCS
T2BC0 000:067.020   CPU_ReadMem(32 bytes @ 0xE0001FE0)
T2BC0 000:067.423   ROMTbl[0][1]: E0001000, CID: B105E00D, PID: 001BB002 DWT
T2BC0 000:067.458   CPU_ReadMem(32 bytes @ 0xE0002FE0)
T2BC0 000:067.861   ROMTbl[0][2]: E0002000, CID: B105E00D, PID: 000BB003 FPB
T2BC0 000:067.896   CPU_ReadMem(32 bytes @ 0xE0000FE0)
T2BC0 000:068.351   ROMTbl[0][3]: E0000000, CID: B105E00D, PID: 001BB001 ITM
T2BC0 000:068.377   CPU_ReadMem(32 bytes @ 0xE0040FE0)
T2BC0 000:068.805   ROMTbl[0][4]: E0040000, CID: B105900D, PID: 001BB923 TPIU-Lite
T2BC0 000:068.827   CPU_ReadMem(32 bytes @ 0xE0041FE0)
T2BC0 000:069.275   ROMTbl[0][5]: E0041000, CID: B105900D, PID: 101BB924 ETM-M3
T2BC0 000:069.329   pIdData->ScanLen=9
T2BC0 000:069.342   
T2BC0 000:069.350   pIdData->NumDevices=2
T2BC0 000:069.363   
T2BC0 000:069.371   pIdData->aId[0]=0x3BA00477
T2BC0 000:069.383   
T2BC0 000:069.391   pIdData->aIrRead[0]=0
T2BC0 000:069.403   
T2BC0 000:069.411   pIdData->aScanLen[0]=0
T2BC0 000:069.423   
T2BC0 000:069.431   pIdData->aScanRead[0]=0
T2BC0 000:069.443   
T2BC0 000:069.451 - 19.233ms
T2BC0 000:069.472 JLINK_JTAG_GetDeviceID(DeviceIndex = 0)
T2BC0 000:069.481 - 0.013ms returns 0x3BA00477
T2BC0 000:069.495 JLINK_JTAG_GetDeviceInfo(DeviceIndex = 0)
T2BC0 000:069.522 - 0.030ms returns 0x00
T2BC0 000:069.535 JLINK_JTAG_GetDeviceID(DeviceIndex = 1)
T2BC0 000:069.543 - 0.012ms returns 0x6414041
T2BC0 000:069.556 JLINK_JTAG_GetDeviceInfo(DeviceIndex = 1)
T2BC0 000:069.582 - 0.029ms returns 0x00
T2BC0 000:069.613 JLINK_GetDLLVersion()  returns 67005
T2BC0 000:069.662 JLINK_CORE_GetFound()
T2BC0 000:069.690 - 0.031ms returns 0x30000FF
T2BC0 000:069.720 JLINK_GetDebugInfo(0x100 = JLINKARM_ROM_TABLE_ADDR_INDEX)
T2BC0 000:069.751   Value=0xE00FF000
T2BC0 000:069.763 - 0.047ms returns 0x00
T2BC0 000:069.819 JLINK_GetDebugInfo(0x100 = JLINKARM_ROM_TABLE_ADDR_INDEX)
T2BC0 000:069.847   Value=0xE00FF000
T2BC0 000:069.859 - 0.044ms returns 0x00
T2BC0 000:069.871 JLINK_GetDebugInfo(0x101 = JLINKARM_DEBUG_INFO_ETM_ADDR_INDEX)
T2BC0 000:069.879   Value=0xE0041000
T2BC0 000:069.891 - 0.025ms returns 0x00
T2BC0 000:069.904   JLINK_ReadMemEx(0xE0041FD0, 0x0020 Bytes, ..., Flags = 0x02000004)
T2BC0 000:069.932   CPU_ReadMem(32 bytes @ 0xE0041FD0)
T2BC0 000:070.353   Data:  04 00 00 00 00 00 00 00 00 00 00 00 00 00 00 00 ...
T2BC0 000:070.373 - 0.474ms returns 0x20
T2BC0 000:070.388 JLINK_GetDebugInfo(0x102 = JLINKARM_DEBUG_INFO_MTB_ADDR_INDEX)
T2BC0 000:070.398   Value=0x00000000
T2BC0 000:070.410 - 0.026ms returns 0x00
T2BC0 000:070.422 JLINK_GetDebugInfo(0x103 = JLINKARM_DEBUG_INFO_TPIU_ADDR_INDEX)
T2BC0 000:070.430   Value=0xE0040000
T2BC0 000:070.443 - 0.025ms returns 0x00
T2BC0 000:070.454 JLINK_GetDebugInfo(0x104 = JLINKARM_DEBUG_INFO_ITM_ADDR_INDEX)
T2BC0 000:070.462   Value=0xE0000000
T2BC0 000:070.475 - 0.025ms returns 0x00
T2BC0 000:070.486 JLINK_GetDebugInfo(0x105 = JLINKARM_DEBUG_INFO_DWT_ADDR_INDEX)
T2BC0 000:070.494   Value=0xE0001000
T2BC0 000:070.506 - 0.024ms returns 0x00
T2BC0 000:070.517 JLINK_GetDebugInfo(0x106 = JLINKARM_DEBUG_INFO_FPB_ADDR_INDEX)
T2BC0 000:070.526   Value=0xE0002000
T2BC0 000:070.538 - 0.025ms returns 0x00
T2BC0 000:070.549 JLINK_GetDebugInfo(0x107 = JLINKARM_DEBUG_INFO_NVIC_ADDR_INDEX)
T2BC0 000:070.558   Value=0xE000E000
T2BC0 000:070.570 - 0.024ms returns 0x00
T2BC0 000:070.581 JLINK_GetDebugInfo(0x10C = JLINKARM_DEBUG_INFO_DBG_ADDR_INDEX)
T2BC0 000:070.589   Value=0xE000EDF0
T2BC0 000:070.601 - 0.025ms returns 0x00
T2BC0 000:070.612 JLINK_GetDebugInfo(0x01 = Unknown)
T2BC0 000:070.624   Value=0x00000000
T2BC0 000:070.636 - 0.028ms returns 0x00
T2BC0 000:070.650 JLINK_ReadMemU32(0xE000ED00, 0x0001 Items, ...)
T2BC0 000:070.666   CPU_ReadMem(4 bytes @ 0xE000ED00)
T2BC0 000:070.961   Data:  31 C2 1F 41
T2BC0 000:071.005    - CPUID
T2BC0 000:071.017 - 0.372ms returns 1
T2BC0 000:071.032 JLINK_GetDebugInfo(0x10F = JLINKARM_DEBUG_INFO_HAS_CORTEX_M_SECURITY_EXT_INDEX)
T2BC0 000:071.042   Value=0x00000000
T2BC0 000:071.054 - 0.025ms returns 0x00
T2BC0 000:071.069 JLINK_SetResetType(JLINKARM_CM3_RESET_TYPE_NORMAL)
T2BC0 000:071.078 - 0.013ms returns JLINKARM_CM3_RESET_TYPE_NORMAL
T2BC0 000:071.089 JLINK_Reset()
T2BC0 000:071.111   CPU is running
T2BC0 000:071.143   CPU_WriteMem(4 bytes @ 0xE000EDF0)
T2BC0 000:071.439   CPU is running
T2BC0 000:071.459   CPU_WriteMem(4 bytes @ 0xE000EDFC)
T2BC0 000:071.776   Reset: Halt core after reset via DEMCR.VC_CORERESET.
T2BC0 000:071.805   Reset: Reset device via AIRCR.SYSRESETREQ.
T2BC0 000:071.819   CPU is running
T2BC0 000:071.849   CPU_WriteMem(4 bytes @ 0xE000ED0C)
T2BC0 000:123.871   CPU_ReadMem(4 bytes @ 0xE000EDF0)
T2BC0 000:124.213   CPU_ReadMem(4 bytes @ 0xE000EDF0)
T2BC0 000:124.503   CPU is running
T2BC0 000:124.522   CPU_WriteMem(4 bytes @ 0xE000EDF0)
T2BC0 000:124.754   CPU is running
T2BC0 000:124.772   CPU_WriteMem(4 bytes @ 0xE000EDFC)
T2BC0 000:130.857   CPU_ReadMem(4 bytes @ 0xE000EDF0)
T2BC0 000:132.871   CPU_WriteMem(4 bytes @ 0xE000EDFC)
T2BC0 000:133.144   CPU_WriteMem(4 bytes @ 0xE0001028)
T2BC0 000:133.395   CPU_WriteMem(4 bytes @ 0xE0001038)
T2BC0 000:133.672   CPU_WriteMem(4 bytes @ 0xE0001048)
T2BC0 000:133.924   CPU_WriteMem(4 bytes @ 0xE0001058)
T2BC0 000:134.190   CPU_WriteMem(4 bytes @ 0xE0002000)
T2BC0 000:134.442   CPU_ReadMem(4 bytes @ 0xE000EDFC)
T2BC0 000:134.759   CPU_ReadMem(4 bytes @ 0xE0001000)
T2BC0 000:135.048 - 63.967ms
T2BC0 000:135.127 JLINK_ReadReg(R15 (PC))
T2BC0 000:135.161 - 0.038ms returns 0x0800DD9C
T2BC0 000:135.173 JLINK_ReadReg(XPSR)
T2BC0 000:135.183 - 0.013ms returns 0x01000000
T2BC0 000:135.194 JLINK_Halt()
T2BC0 000:135.203 - 0.012ms returns 0x00
T2BC0 000:135.214 JLINK_ReadMemU32(0xE000EDF0, 0x0001 Items, ...)
T2BC0 000:135.227   CPU_ReadMem(4 bytes @ 0xE000EDF0)
T2BC0 000:135.508   Data:  03 00 03 00
T2BC0 000:135.526    - DHCSR
T2BC0 000:135.538 - 0.328ms returns 1
T2BC0 000:135.552 JLINK_WriteU32(0xE000EDF0, 0xA05F0003)
T2BC0 000:135.561    - DHCSR
T2BC0 000:135.584   CPU_WriteMem(4 bytes @ 0xE000EDF0)
T2BC0 000:135.858 - 0.315ms returns 0
T2BC0 000:135.894 JLINK_WriteU32(0xE000EDFC, 0x01000000)
T2BC0 000:135.903    - DEMCR
T2BC0 000:135.921   CPU_WriteMem(4 bytes @ 0xE000EDFC)
T2BC0 000:136.194 - 0.309ms returns 0
T2BC0 000:136.249 JLINK_GetHWStatus(...)
T2BC0 000:136.402 - 0.178ms returns 0x00
T2BC0 000:136.460 JLINK_GetNumBPUnits(Type = 0xFFFFFF00)
T2BC0 000:136.471 - 0.015ms returns 0x06
T2BC0 000:136.482 JLINK_GetNumBPUnits(Type = 0xF0)
T2BC0 000:136.491 - 0.013ms returns 0x2000
T2BC0 000:136.502 JLINK_GetNumWPUnits()
T2BC0 000:136.510 - 0.012ms returns 0x04
T2BC0 000:136.536 JLINK_GetSpeed()
T2BC0 000:136.545 - 0.013ms returns 0x1388
T2BC0 000:136.565 JLINK_ReadMemU32(0xE000E004, 0x0001 Items, ...)
T2BC0 000:136.579   CPU_ReadMem(4 bytes @ 0xE000E004)
T2BC0 000:136.864   Data:  01 00 00 00
T2BC0 000:136.884 - 0.340ms returns 1
T2BC0 000:136.916 JLINK_ReadMemU32(0xE000E004, 0x0001 Items, ...)
T2BC0 000:136.930   CPU_ReadMem(4 bytes @ 0xE000E004)
T2BC0 000:137.213   Data:  01 00 00 00
T2BC0 000:137.231 - 0.319ms returns 1
T2BC0 000:137.263 JLINK_WriteMemEx(0xE0001000, 0x001C Bytes, ..., Flags = 0x02000004)
T2BC0 000:137.273   Data:  01 00 00 00 00 00 00 00 00 00 00 00 00 00 00 00 ...
T2BC0 000:137.956   CPU_WriteMem(28 bytes @ 0xE0001000)
T2BC0 000:138.305 - 1.053ms returns 0x1C
T2BC0 000:138.330 JLINK_ReadReg(R15 (PC))
T2BC0 000:138.343 - 0.016ms returns 0x0800DD9C
T2BC0 000:138.354 JLINK_ReadReg(XPSR)
T2BC0 000:138.364 - 0.013ms returns 0x01000000
T2BC0 000:143.561   JLINK_ReadMemEx(0xE0001004, 0x0004 Bytes, ..., Flags = 0x02000000)
T2BC0 000:143.592   Data:  00 00 00 00
T2BC0 000:143.605    - DWT_CYCCNT
T2BC0 000:143.617 - 0.061ms returns 0x04
T2BC0 000:233.651 JLINK_SetResetType(JLINKARM_CM3_RESET_TYPE_NORMAL)
T2BC0 000:233.678 - 0.032ms returns JLINKARM_CM3_RESET_TYPE_NORMAL
T2BC0 000:233.690 JLINK_Reset()
T2BC0 000:233.727   CPU_WriteMem(4 bytes @ 0xE000EDF0)
T2BC0 000:234.051   CPU_WriteMem(4 bytes @ 0xE000EDFC)
T2BC0 000:234.419   Reset: Halt core after reset via DEMCR.VC_CORERESET.
T2BC0 000:234.443   Reset: Reset device via AIRCR.SYSRESETREQ.
T2BC0 000:234.456   CPU_WriteMem(4 bytes @ 0xE000ED0C)
T2BC0 000:286.427   CPU_ReadMem(4 bytes @ 0xE000EDF0)
T2BC0 000:286.923   CPU_ReadMem(4 bytes @ 0xE000EDF0)
T2BC0 000:287.370   CPU_WriteMem(4 bytes @ 0xE000EDF0)
T2BC0 000:287.718   CPU_WriteMem(4 bytes @ 0xE000EDFC)
T2BC0 000:293.443   CPU_ReadMem(4 bytes @ 0xE000EDF0)
T2BC0 000:295.607   CPU_WriteMem(4 bytes @ 0xE000EDFC)
T2BC0 000:295.955   CPU_WriteMem(4 bytes @ 0xE0001028)
T2BC0 000:296.269   CPU_WriteMem(4 bytes @ 0xE0001038)
T2BC0 000:296.566   CPU_WriteMem(4 bytes @ 0xE0001048)
T2BC0 000:296.858   CPU_WriteMem(4 bytes @ 0xE0001058)
T2BC0 000:297.124   CPU_WriteMem(4 bytes @ 0xE0002000)
T2BC0 000:297.446   CPU_ReadMem(4 bytes @ 0xE000EDFC)
T2BC0 000:297.808   CPU_ReadMem(4 bytes @ 0xE0001000)
T2BC0 000:298.125 - 64.443ms
T2BC0 000:298.227 JLINK_ReadReg(R15 (PC))
T2BC0 000:298.239 - 0.017ms returns 0x0800DD9C
T2BC0 000:298.251 JLINK_ReadReg(XPSR)
T2BC0 000:298.260 - 0.013ms returns 0x01000000
T2BC0 000:298.756   JLINK_ReadMemEx(0x0800DD9C, 0x003C Bytes, ..., Flags = 0x02000000)
T2BC0 000:298.903   CPU_ReadMem(128 bytes @ 0x0800DD80)
T2BC0 000:300.238    -- Updating C cache (128 bytes @ 0x0800DD80)
T2BC0 000:300.256    -- Read from C cache (60 bytes @ 0x0800DD9C)
T2BC0 000:300.270   Data:  09 48 80 47 09 48 00 47 FE E7 FE E7 FE E7 FE E7 ...
T2BC0 000:300.281 - 1.530ms returns 0x3C
T2BC0 000:300.296   JLINK_ReadMemEx(0x0800DD9C, 0x0002 Bytes, ..., Flags = 0x02000000)
T2BC0 000:300.309    -- Read from C cache (2 bytes @ 0x0800DD9C)
T2BC0 000:300.320   Data:  09 48
T2BC0 000:300.332 - 0.040ms returns 0x02
T2BC0 000:300.501   JLINK_ReadMemEx(0x0800DD9E, 0x0002 Bytes, ..., Flags = 0x02000000)
T2BC0 000:300.531    -- Read from C cache (2 bytes @ 0x0800DD9E)
T2BC0 000:300.543   Data:  80 47
T2BC0 000:300.554 - 0.056ms returns 0x02
T2BC0 000:300.575   JLINK_ReadMemEx(0x0800DD9E, 0x0002 Bytes, ..., Flags = 0x02000000)
T2BC0 000:300.587    -- Read from C cache (2 bytes @ 0x0800DD9E)
T2BC0 000:300.598   Data:  80 47
T2BC0 000:300.610 - 0.039ms returns 0x02
T2BC0 000:300.620   JLINK_ReadMemEx(0x0800DDA0, 0x003C Bytes, ..., Flags = 0x02000000)
T2BC0 000:300.632    -- Read from C cache (60 bytes @ 0x0800DDA0)
T2BC0 000:300.644   Data:  09 48 00 47 FE E7 FE E7 FE E7 FE E7 FE E7 FE E7 ...
T2BC0 000:300.655 - 0.039ms returns 0x3C
T2BC0 000:300.666   JLINK_ReadMemEx(0x0800DDA0, 0x0002 Bytes, ..., Flags = 0x02000000)
T2BC0 000:300.677    -- Read from C cache (2 bytes @ 0x0800DDA0)
T2BC0 000:300.689   Data:  09 48
T2BC0 000:300.700 - 0.038ms returns 0x02
T2BC0 003:817.979 JLINK_ReadReg(R0)
T2BC0 003:818.290 - 0.343ms returns 0x00000001
T2BC0 003:818.334 JLINK_ReadReg(R1)
T2BC0 003:818.344 - 0.015ms returns 0x20000018
T2BC0 003:818.356 JLINK_ReadReg(R2)
T2BC0 003:818.365 - 0.013ms returns 0x40003800
T2BC0 003:818.376 JLINK_ReadReg(R3)
T2BC0 003:818.385 - 0.013ms returns 0x00000001
T2BC0 003:818.396 JLINK_ReadReg(R4)
T2BC0 003:818.404 - 0.012ms returns 0x000000C3
T2BC0 003:818.416 JLINK_ReadReg(R5)
T2BC0 003:818.424 - 0.013ms returns 0x00000000
T2BC0 003:818.549 JLINK_ReadReg(R6)
T2BC0 003:818.580 - 0.036ms returns 0x06060606
T2BC0 003:818.592 JLINK_ReadReg(R7)
T2BC0 003:818.601 - 0.013ms returns 0x07070707
T2BC0 003:818.612 JLINK_ReadReg(R8)
T2BC0 003:818.621 - 0.013ms returns 0x08080808
T2BC0 003:818.632 JLINK_ReadReg(R9)
T2BC0 003:818.641 - 0.013ms returns 0x09090909
T2BC0 003:818.652 JLINK_ReadReg(R10)
T2BC0 003:818.661 - 0.013ms returns 0x10101010
T2BC0 003:818.672 JLINK_ReadReg(R11)
T2BC0 003:818.681 - 0.013ms returns 0x11111111
T2BC0 003:818.692 JLINK_ReadReg(R12)
T2BC0 003:818.700 - 0.012ms returns 0x00001000
T2BC0 003:818.754 JLINK_ReadReg(R13 (SP))
T2BC0 003:818.766 - 0.017ms returns 0x200090D0
T2BC0 003:818.777 JLINK_ReadReg(R14)
T2BC0 003:818.786 - 0.013ms returns 0xFFFFFFFF
T2BC0 003:818.798 JLINK_ReadReg(R15 (PC))
T2BC0 003:818.807 - 0.013ms returns 0x0800DD9C
T2BC0 003:818.818 JLINK_ReadReg(XPSR)
T2BC0 003:818.827 - 0.013ms returns 0x01000000
T2BC0 003:818.838 JLINK_ReadReg(MSP)
T2BC0 003:818.846 - 0.013ms returns 0x200090D0
T2BC0 003:818.857 JLINK_ReadReg(PSP)
T2BC0 003:818.866 - 0.012ms returns 0x200003DC
T2BC0 003:818.877 JLINK_ReadReg(CFBP)
T2BC0 003:818.886 - 0.013ms returns 0x00000000
T988C 004:198.159   JLINK_ReadMemEx(0x0800DD9C, 0x0002 Bytes, ..., Flags = 0x02000000)
T988C 004:198.206    -- Read from C cache (2 bytes @ 0x0800DD9C)
T988C 004:198.219   Data:  09 48
T988C 004:198.232 - 0.078ms returns 0x02
T988C 004:198.250   JLINK_SetBPEx(Addr = 0x080001EA, Type = 0xFFFFFFF2)
T988C 004:198.268 - 0.041ms returns 0x00000001
T988C 004:198.321   JLINK_SetBPEx(Addr = 0x0800054E, Type = 0xFFFFFFF2)
T988C 004:198.352 - 0.035ms returns 0x00000002
T988C 004:198.369 JLINK_Go()
T988C 004:198.459   CPU_WriteMem(4 bytes @ 0xE0002000)
T988C 004:198.882   CPU_ReadMem(4 bytes @ 0xE0001000)
T988C 004:199.203   CPU_WriteMem(4 bytes @ 0xE0002008)
T988C 004:199.243   CPU_WriteMem(4 bytes @ 0xE000200C)
T988C 004:199.257   CPU_WriteMem(4 bytes @ 0xE0002010)
T988C 004:199.270   CPU_WriteMem(4 bytes @ 0xE0002014)
T988C 004:199.288   CPU_WriteMem(4 bytes @ 0xE0002018)
T988C 004:199.302   CPU_WriteMem(4 bytes @ 0xE000201C)
T988C 004:200.329   CPU_WriteMem(4 bytes @ 0xE0001004)
T988C 004:200.937 - 2.581ms
T988C 004:301.059 JLINK_IsHalted()
T988C 004:302.850 - 1.803ms returns TRUE
T988C 004:302.877 JLINK_Halt()
T988C 004:302.886 - 0.013ms returns 0x00
T988C 004:302.898 JLINK_IsHalted()
T988C 004:302.907 - 0.012ms returns TRUE
T988C 004:302.918 JLINK_IsHalted()
T988C 004:302.926 - 0.012ms returns TRUE
T988C 004:302.937 JLINK_IsHalted()
T988C 004:302.946 - 0.012ms returns TRUE
T988C 004:302.960 JLINK_ReadReg(R15 (PC))
T988C 004:302.971 - 0.015ms returns 0x080001EA
T988C 004:302.983 JLINK_ReadReg(XPSR)
T988C 004:302.992 - 0.013ms returns 0x21000000
T988C 004:303.011 JLINK_ClrBPEx(BPHandle = 0x00000001)
T988C 004:303.021 - 0.031ms returns 0x00
T988C 004:303.052 JLINK_ClrBPEx(BPHandle = 0x00000002)
T988C 004:303.061 - 0.013ms returns 0x00
T988C 004:303.077 JLINK_ReadMemU32(0xE000ED30, 0x0001 Items, ...)
T988C 004:303.092   CPU_ReadMem(4 bytes @ 0xE000ED30)
T988C 004:303.384   Data:  02 00 00 00
T988C 004:303.404 - 0.331ms returns 1
T988C 004:303.419 JLINK_ReadMemU32(0xE0001028, 0x0001 Items, ...)
T988C 004:303.451   CPU_ReadMem(4 bytes @ 0xE0001028)
T988C 004:303.760   Data:  00 00 00 00
T988C 004:303.784    - DWT_FUNC[0]
T988C 004:303.800 - 0.385ms returns 1
T988C 004:303.815 JLINK_ReadMemU32(0xE0001038, 0x0001 Items, ...)
T988C 004:303.845   CPU_ReadMem(4 bytes @ 0xE0001038)
T988C 004:304.142   Data:  00 02 00 00
T988C 004:304.160    - DWT_FUNC[1]
T988C 004:304.173 - 0.362ms returns 1
T988C 004:304.187 JLINK_ReadMemU32(0xE0001048, 0x0001 Items, ...)
T988C 004:304.202   CPU_ReadMem(4 bytes @ 0xE0001048)
T988C 004:304.512   Data:  00 00 00 00
T988C 004:304.532    - DWT_FUNC[2]
T988C 004:304.545 - 0.361ms returns 1
T988C 004:304.559 JLINK_ReadMemU32(0xE0001058, 0x0001 Items, ...)
T988C 004:304.579   CPU_ReadMem(4 bytes @ 0xE0001058)
T988C 004:304.878   Data:  00 00 00 00
T988C 004:304.896    - DWT_FUNC[3]
T988C 004:304.909 - 0.353ms returns 1
T988C 004:304.967 JLINK_ReadReg(R0)
T988C 004:304.980 - 0.017ms returns 0x20008AD0
T988C 004:304.991 JLINK_ReadReg(R1)
T988C 004:305.001 - 0.014ms returns 0x20008CD0
T988C 004:305.013 JLINK_ReadReg(R2)
T988C 004:305.022 - 0.013ms returns 0x20008CD0
T988C 004:305.033 JLINK_ReadReg(R3)
T988C 004:305.042 - 0.013ms returns 0x20008CD0
T988C 004:305.053 JLINK_ReadReg(R4)
T988C 004:305.062 - 0.012ms returns 0x00000000
T988C 004:305.073 JLINK_ReadReg(R5)
T988C 004:305.081 - 0.012ms returns 0x20008A70
T988C 004:305.092 JLINK_ReadReg(R6)
T988C 004:305.147 - 0.059ms returns 0x00000000
T988C 004:305.159 JLINK_ReadReg(R7)
T988C 004:305.171 - 0.018ms returns 0x00000000
T988C 004:305.184 JLINK_ReadReg(R8)
T988C 004:305.193 - 0.013ms returns 0x00000000
T988C 004:305.204 JLINK_ReadReg(R9)
T988C 004:305.213 - 0.013ms returns 0x09090909
T988C 004:305.224 JLINK_ReadReg(R10)
T988C 004:305.233 - 0.013ms returns 0x0800E324
T988C 004:305.244 JLINK_ReadReg(R11)
T988C 004:305.252 - 0.012ms returns 0x00000000
T988C 004:305.264 JLINK_ReadReg(R12)
T988C 004:305.272 - 0.012ms returns 0x20008AB0
T988C 004:305.286 JLINK_ReadReg(R13 (SP))
T988C 004:305.297 - 0.015ms returns 0x200090D0
T988C 004:305.309 JLINK_ReadReg(R14)
T988C 004:305.318 - 0.013ms returns 0x080001DB
T988C 004:305.329 JLINK_ReadReg(R15 (PC))
T988C 004:305.338 - 0.013ms returns 0x080001EA
T988C 004:305.349 JLINK_ReadReg(XPSR)
T988C 004:305.358 - 0.013ms returns 0x21000000
T988C 004:305.369 JLINK_ReadReg(MSP)
T988C 004:305.377 - 0.013ms returns 0x200090D0
T988C 004:305.388 JLINK_ReadReg(PSP)
T988C 004:305.397 - 0.013ms returns 0x200003DC
T988C 004:305.408 JLINK_ReadReg(CFBP)
T988C 004:305.417 - 0.013ms returns 0x00000000
T2BC0 004:321.568   JLINK_ReadMemEx(0x080001EA, 0x0002 Bytes, ..., Flags = 0x02000000)
T2BC0 004:321.607   CPU_ReadMem(64 bytes @ 0x080001C0)
T2BC0 004:322.165    -- Updating C cache (64 bytes @ 0x080001C0)
T2BC0 004:322.186    -- Read from C cache (2 bytes @ 0x080001EA)
T2BC0 004:322.199   Data:  10 B5
T2BC0 004:322.212 - 0.649ms returns 0x02
T2BC0 004:322.228   JLINK_ReadMemEx(0x080001EC, 0x003C Bytes, ..., Flags = 0x02000000)
T2BC0 004:322.244   CPU_ReadMem(64 bytes @ 0x08000200)
T2BC0 004:322.753    -- Updating C cache (64 bytes @ 0x08000200)
T2BC0 004:322.771    -- Read from C cache (60 bytes @ 0x080001EC)
T2BC0 004:322.785   Data:  00 F0 3F F8 00 20 10 BD 10 B5 03 F0 2F F9 10 BD ...
T2BC0 004:322.797 - 0.574ms returns 0x3C
T2BC0 004:322.811   JLINK_ReadMemEx(0x080001EC, 0x0002 Bytes, ..., Flags = 0x02000000)
T2BC0 004:322.825    -- Read from C cache (2 bytes @ 0x080001EC)
T2BC0 004:322.837   Data:  00 F0
T2BC0 004:322.850 - 0.043ms returns 0x02
T2BC0 004:322.871   JLINK_ReadMemEx(0x080001EC, 0x003C Bytes, ..., Flags = 0x02000000)
T2BC0 004:322.885    -- Read from C cache (60 bytes @ 0x080001EC)
T2BC0 004:322.898   Data:  00 F0 3F F8 00 20 10 BD 10 B5 03 F0 2F F9 10 BD ...
T2BC0 004:322.910 - 0.042ms returns 0x3C
T2BC0 004:322.921   JLINK_ReadMemEx(0x080001EC, 0x0002 Bytes, ..., Flags = 0x02000000)
T2BC0 004:322.934    -- Read from C cache (2 bytes @ 0x080001EC)
T2BC0 004:322.946   Data:  00 F0
T2BC0 004:322.961 - 0.043ms returns 0x02
T2BC0 004:322.972   JLINK_ReadMemEx(0x080001EE, 0x0002 Bytes, ..., Flags = 0x02000000)
T2BC0 004:322.985    -- Read from C cache (2 bytes @ 0x080001EE)
T2BC0 004:323.014   Data:  3F F8
T2BC0 004:323.027 - 0.059ms returns 0x02
T988C 007:332.640   JLINK_ReadMemEx(0x080001EA, 0x0002 Bytes, ..., Flags = 0x02000000)
T988C 007:332.687    -- Read from C cache (2 bytes @ 0x080001EA)
T988C 007:332.700   Data:  10 B5
T988C 007:332.713 - 0.078ms returns 0x02
T988C 007:332.732   JLINK_SetBPEx(Addr = 0x0800054E, Type = 0xFFFFFFF2)
T988C 007:332.750 - 0.022ms returns 0x00000003
T988C 007:332.767 JLINK_Go()
T988C 007:333.187   CPU_WriteMem(4 bytes @ 0xE0002000)
T988C 007:333.640   CPU_ReadMem(4 bytes @ 0xE0001000)
T988C 007:333.970   CPU_WriteMem(4 bytes @ 0xE0002008)
T988C 007:333.993   CPU_WriteMem(4 bytes @ 0xE000200C)
T988C 007:334.863 - 2.109ms
T988C 007:435.723 JLINK_IsHalted()
T988C 007:437.675 - 1.981ms returns TRUE
T988C 007:437.756 JLINK_Halt()
T988C 007:437.765 - 0.013ms returns 0x00
T988C 007:437.776 JLINK_IsHalted()
T988C 007:437.785 - 0.012ms returns TRUE
T988C 007:437.796 JLINK_IsHalted()
T988C 007:437.804 - 0.012ms returns TRUE
T988C 007:437.815 JLINK_IsHalted()
T988C 007:437.823 - 0.028ms returns TRUE
T988C 007:437.853 JLINK_ReadReg(R15 (PC))
T988C 007:437.864 - 0.014ms returns 0x0800054E
T988C 007:437.875 JLINK_ReadReg(XPSR)
T988C 007:437.883 - 0.012ms returns 0x21000000
T988C 007:437.902 JLINK_ClrBPEx(BPHandle = 0x00000003)
T988C 007:437.913 - 0.014ms returns 0x00
T988C 007:437.928 JLINK_ReadMemU32(0xE000ED30, 0x0001 Items, ...)
T988C 007:437.942   CPU_ReadMem(4 bytes @ 0xE000ED30)
T988C 007:438.348   Data:  02 00 00 00
T988C 007:438.366 - 0.442ms returns 1
T988C 007:438.380 JLINK_ReadMemU32(0xE0001028, 0x0001 Items, ...)
T988C 007:438.394   CPU_ReadMem(4 bytes @ 0xE0001028)
T988C 007:438.907   Data:  00 00 00 00
T988C 007:438.928    - DWT_FUNC[0]
T988C 007:438.940 - 0.564ms returns 1
T988C 007:438.955 JLINK_ReadMemU32(0xE0001038, 0x0001 Items, ...)
T988C 007:438.985   CPU_ReadMem(4 bytes @ 0xE0001038)
T988C 007:439.390   Data:  00 02 00 00
T988C 007:439.409    - DWT_FUNC[1]
T988C 007:439.420 - 0.469ms returns 1
T988C 007:439.434 JLINK_ReadMemU32(0xE0001048, 0x0001 Items, ...)
T988C 007:439.447   CPU_ReadMem(4 bytes @ 0xE0001048)
T988C 007:439.841   Data:  00 00 00 00
T988C 007:439.860    - DWT_FUNC[2]
T988C 007:439.871 - 0.441ms returns 1
T988C 007:439.885 JLINK_ReadMemU32(0xE0001058, 0x0001 Items, ...)
T988C 007:439.898   CPU_ReadMem(4 bytes @ 0xE0001058)
T988C 007:440.273   Data:  00 00 00 00
T988C 007:440.291    - DWT_FUNC[3]
T988C 007:440.303 - 0.422ms returns 1
T988C 007:440.357 JLINK_ReadReg(R0)
T988C 007:440.369 - 0.016ms returns 0x40003800
T988C 007:440.379 JLINK_ReadReg(R1)
T988C 007:440.388 - 0.012ms returns 0x00000001
T988C 007:440.398 JLINK_ReadReg(R2)
T988C 007:440.406 - 0.012ms returns 0x0000037C
T988C 007:440.417 JLINK_ReadReg(R3)
T988C 007:440.425 - 0.012ms returns 0x00000007
T988C 007:440.435 JLINK_ReadReg(R4)
T988C 007:440.443 - 0.011ms returns 0x05DEFF35
T988C 007:440.453 JLINK_ReadReg(R5)
T988C 007:440.461 - 0.012ms returns 0x00000000
T988C 007:440.471 JLINK_ReadReg(R6)
T988C 007:440.480 - 0.012ms returns 0x06060606
T988C 007:440.490 JLINK_ReadReg(R7)
T988C 007:440.498 - 0.012ms returns 0x07070707
T988C 007:440.508 JLINK_ReadReg(R8)
T988C 007:440.516 - 0.012ms returns 0x08080808
T988C 007:440.527 JLINK_ReadReg(R9)
T988C 007:440.535 - 0.012ms returns 0x09090909
T988C 007:440.545 JLINK_ReadReg(R10)
T988C 007:440.553 - 0.012ms returns 0x10101010
T988C 007:440.563 JLINK_ReadReg(R11)
T988C 007:440.571 - 0.012ms returns 0x11111111
T988C 007:440.582 JLINK_ReadReg(R12)
T988C 007:440.590 - 0.012ms returns 0x00001000
T988C 007:440.600 JLINK_ReadReg(R13 (SP))
T988C 007:440.608 - 0.013ms returns 0x200003E4
T988C 007:440.638 JLINK_ReadReg(R14)
T988C 007:440.665 - 0.047ms returns 0x0800107D
T988C 007:440.693 JLINK_ReadReg(R15 (PC))
T988C 007:440.718 - 0.029ms returns 0x0800054E
T988C 007:440.746 JLINK_ReadReg(XPSR)
T988C 007:440.754 - 0.012ms returns 0x21000000
T988C 007:440.765 JLINK_ReadReg(MSP)
T988C 007:440.773 - 0.012ms returns 0x20007788
T988C 007:440.783 JLINK_ReadReg(PSP)
T988C 007:440.791 - 0.012ms returns 0x200003E4
T988C 007:440.801 JLINK_ReadReg(CFBP)
T988C 007:440.809 - 0.012ms returns 0x02000000
T2BC0 007:441.153   JLINK_ReadMemEx(0x200003F0, 0x0004 Bytes, ..., Flags = 0x02000000)
T2BC0 007:441.179   CPU_ReadMem(64 bytes @ 0x200003C0)
T2BC0 007:441.860    -- Updating C cache (64 bytes @ 0x200003C0)
T2BC0 007:441.878    -- Read from C cache (4 bytes @ 0x200003F0)
T2BC0 007:441.891   Data:  0D 02 00 08
T2BC0 007:441.903 - 0.755ms returns 0x04
T2BC0 007:442.142   JLINK_ReadMemEx(0x200003E4, 0x0004 Bytes, ..., Flags = 0x02000000)
T2BC0 007:442.159    -- Read from C cache (4 bytes @ 0x200003E4)
T2BC0 007:442.170   Data:  04 04 04 04
T2BC0 007:442.182 - 0.044ms returns 0x04
T2BC0 007:442.194   JLINK_ReadMemEx(0x200003E8, 0x0004 Bytes, ..., Flags = 0x02000000)
T2BC0 007:442.206    -- Read from C cache (4 bytes @ 0x200003E8)
T2BC0 007:442.218   Data:  05 05 05 05
T2BC0 007:442.229 - 0.039ms returns 0x04
T2BC0 007:442.240   JLINK_ReadMemEx(0x200003EC, 0x0004 Bytes, ..., Flags = 0x02000000)
T2BC0 007:442.252    -- Read from C cache (4 bytes @ 0x200003EC)
T2BC0 007:442.264   Data:  06 06 06 06
T2BC0 007:442.275 - 0.039ms returns 0x04
T2BC0 007:442.286   JLINK_ReadMemEx(0x200003F0, 0x0004 Bytes, ..., Flags = 0x02000000)
T2BC0 007:442.302    -- Read from C cache (4 bytes @ 0x200003F0)
T2BC0 007:442.314   Data:  0D 02 00 08
T2BC0 007:442.325 - 0.043ms returns 0x04
T2BC0 007:442.337   JLINK_ReadMemEx(0x20000400, 0x0004 Bytes, ..., Flags = 0x02000000)
T2BC0 007:442.352   CPU_ReadMem(64 bytes @ 0x20000400)
T2BC0 007:442.913    -- Updating C cache (64 bytes @ 0x20000400)
T2BC0 007:442.932    -- Read from C cache (4 bytes @ 0x20000400)
T2BC0 007:442.945   Data:  23 C5 00 08
T2BC0 007:442.957 - 0.623ms returns 0x04
T2BC0 007:443.294   JLINK_ReadMemEx(0x20000400, 0x0004 Bytes, ..., Flags = 0x02000000)
T2BC0 007:443.311    -- Read from C cache (4 bytes @ 0x20000400)
T2BC0 007:443.323   Data:  23 C5 00 08
T2BC0 007:443.334 - 0.045ms returns 0x04
T2BC0 007:443.467   JLINK_ReadMemEx(0x20000420, 0x0004 Bytes, ..., Flags = 0x02000000)
T2BC0 007:443.482    -- Read from C cache (4 bytes @ 0x20000420)
T2BC0 007:443.494   Data:  00 00 00 00
T2BC0 007:443.506 - 0.043ms returns 0x04
T2BC0 007:452.979   JLINK_ReadMemEx(0x0800054E, 0x0002 Bytes, ..., Flags = 0x02000000)
T2BC0 007:453.010   CPU_ReadMem(64 bytes @ 0x08000540)
T2BC0 007:453.638    -- Updating C cache (64 bytes @ 0x08000540)
T2BC0 007:453.693    -- Read from C cache (2 bytes @ 0x0800054E)
T2BC0 007:453.725   Data:  FF F7
T2BC0 007:453.737 - 0.763ms returns 0x02
T2BC0 007:453.753   JLINK_ReadMemEx(0x08000550, 0x003C Bytes, ..., Flags = 0x02000000)
T2BC0 007:453.784   CPU_ReadMem(64 bytes @ 0x08000580)
T2BC0 007:454.390    -- Updating C cache (64 bytes @ 0x08000580)
T2BC0 007:454.409    -- Read from C cache (60 bytes @ 0x08000550)
T2BC0 007:454.422   Data:  BE FF 01 28 00 D1 70 BD FF F7 E0 FF 05 46 00 20 ...
T2BC0 007:454.434 - 0.686ms returns 0x3C
T2BC0 007:454.449   JLINK_ReadMemEx(0x08000550, 0x0002 Bytes, ..., Flags = 0x02000000)
T2BC0 007:454.462    -- Read from C cache (2 bytes @ 0x08000550)
T2BC0 007:454.474   Data:  BE FF
T2BC0 007:454.485 - 0.041ms returns 0x02
T2BC0 007:454.520   JLINK_ReadMemEx(0x08000552, 0x0002 Bytes, ..., Flags = 0x02000000)
T2BC0 007:454.534    -- Read from C cache (2 bytes @ 0x08000552)
T2BC0 007:454.545   Data:  01 28
T2BC0 007:454.557 - 0.040ms returns 0x02
T2BC0 007:454.568   JLINK_ReadMemEx(0x08000554, 0x003C Bytes, ..., Flags = 0x02000000)
T2BC0 007:454.629    -- Read from C cache (60 bytes @ 0x08000554)
T2BC0 007:454.660   Data:  00 D1 70 BD FF F7 E0 FF 05 46 00 20 67 49 48 60 ...
T2BC0 007:454.690 - 0.126ms returns 0x3C
T2BC0 007:454.702   JLINK_ReadMemEx(0x08000554, 0x0002 Bytes, ..., Flags = 0x02000000)
T2BC0 007:454.714    -- Read from C cache (2 bytes @ 0x08000554)
T2BC0 007:454.727   Data:  00 D1
T2BC0 007:454.739 - 0.042ms returns 0x02
T2BC0 007:454.775   JLINK_ReadMemEx(0x08000554, 0x003C Bytes, ..., Flags = 0x02000000)
T2BC0 007:454.788    -- Read from C cache (60 bytes @ 0x08000554)
T2BC0 007:454.800   Data:  00 D1 70 BD FF F7 E0 FF 05 46 00 20 67 49 48 60 ...
T2BC0 007:454.812 - 0.041ms returns 0x3C
T2BC0 007:454.823   JLINK_ReadMemEx(0x08000554, 0x0002 Bytes, ..., Flags = 0x02000000)
T2BC0 007:454.835    -- Read from C cache (2 bytes @ 0x08000554)
T2BC0 007:454.847   Data:  00 D1
T2BC0 007:454.859 - 0.040ms returns 0x02
T2BC0 007:454.870   JLINK_ReadMemEx(0x08000556, 0x0002 Bytes, ..., Flags = 0x02000000)
T2BC0 007:454.883    -- Read from C cache (2 bytes @ 0x08000556)
T2BC0 007:454.894   Data:  70 BD
T2BC0 007:454.906 - 0.040ms returns 0x02
T988C 009:805.712   JLINK_ReadMemEx(0x0800054E, 0x0002 Bytes, ..., Flags = 0x02000000)
T988C 009:805.743    -- Read from C cache (2 bytes @ 0x0800054E)
T988C 009:805.757   Data:  FF F7
T988C 009:805.770 - 0.079ms returns 0x02
T988C 009:805.788 JLINK_Step()
T988C 009:806.104    -- Read from C cache (2 bytes @ 0x0800054E)
T988C 009:806.147   CPU_ReadMem(4 bytes @ 0xE000ED18)
T988C 009:806.491   CPU_WriteMem(4 bytes @ 0xE000ED18)
T988C 009:806.758   CPU_ReadMem(4 bytes @ 0xE000ED18)
T988C 009:807.154   CPU_WriteMem(4 bytes @ 0xE000ED18)
T988C 009:807.623   CPU_ReadMem(4 bytes @ 0xE0001004)
T988C 009:808.058    -- Read from C cache (2 bytes @ 0x08000550)
T988C 009:808.088    -- Simulated
T988C 009:808.101 - 2.317ms returns 0x00
T988C 009:808.141 JLINK_ReadReg(R15 (PC))
T988C 009:808.154 - 0.017ms returns 0x080004CE
T988C 009:808.186 JLINK_ReadReg(XPSR)
T988C 009:808.212 - 0.049ms returns 0x21000000
T988C 009:808.346   JLINK_SetBPEx(Addr = 0x08000552, Type = 0xFFFFFFF2)
T988C 009:808.368 - 0.027ms returns 0x00000004
T988C 009:808.383   JLINK_SetBPEx(Addr = 0x0800054E, Type = 0xFFFFFFF2)
T988C 009:808.396 - 0.017ms returns 0x00000005
T988C 009:808.412 JLINK_Go()
T988C 009:808.425   CPU_WriteMem(4 bytes @ 0xE0002000)
T988C 009:808.771   CPU_ReadMem(4 bytes @ 0xE0001000)
T988C 009:809.156   CPU_WriteMem(4 bytes @ 0xE0002008)
T988C 009:809.195   CPU_WriteMem(4 bytes @ 0xE000200C)
T988C 009:809.670   CPU_WriteMem(4 bytes @ 0xE0001004)
T988C 009:810.951 - 2.550ms
T988C 009:911.303 JLINK_IsHalted()
T988C 009:911.711 - 0.419ms returns FALSE
T988C 010:012.048 JLINK_IsHalted()
T988C 010:012.519 - 0.481ms returns FALSE
T988C 010:112.814 JLINK_IsHalted()
T988C 010:113.257 - 0.453ms returns FALSE
T988C 010:213.564 JLINK_IsHalted()
T988C 010:214.073 - 0.519ms returns FALSE
T988C 010:314.255 JLINK_IsHalted()
T988C 010:316.269 - 2.042ms returns TRUE
T988C 010:316.310 JLINK_Halt()
T988C 010:316.318 - 0.012ms returns 0x00
T988C 010:316.329 JLINK_IsHalted()
T988C 010:316.337 - 0.011ms returns TRUE
T988C 010:316.347 JLINK_IsHalted()
T988C 010:316.355 - 0.011ms returns TRUE
T988C 010:316.365 JLINK_IsHalted()
T988C 010:316.373 - 0.011ms returns TRUE
T988C 010:316.388 JLINK_ReadReg(R15 (PC))
T988C 010:316.399 - 0.014ms returns 0x08000552
T988C 010:316.410 JLINK_ReadReg(XPSR)
T988C 010:316.418 - 0.012ms returns 0x21000000
T988C 010:316.470 JLINK_ClrBPEx(BPHandle = 0x00000004)
T988C 010:316.479 - 0.013ms returns 0x00
T988C 010:316.509 JLINK_ClrBPEx(BPHandle = 0x00000005)
T988C 010:316.535 - 0.029ms returns 0x00
T988C 010:316.569 JLINK_ReadMemU32(0xE000ED30, 0x0001 Items, ...)
T988C 010:316.599   CPU_ReadMem(4 bytes @ 0xE000ED30)
T988C 010:317.133   Data:  02 00 00 00
T988C 010:317.190 - 0.625ms returns 1
T988C 010:317.221 JLINK_ReadMemU32(0xE0001028, 0x0001 Items, ...)
T988C 010:317.235   CPU_ReadMem(4 bytes @ 0xE0001028)
T988C 010:317.704   Data:  00 00 00 00
T988C 010:317.722    - DWT_FUNC[0]
T988C 010:317.733 - 0.516ms returns 1
T988C 010:317.747 JLINK_ReadMemU32(0xE0001038, 0x0001 Items, ...)
T988C 010:317.760   CPU_ReadMem(4 bytes @ 0xE0001038)
T988C 010:318.177   Data:  00 02 00 00
T988C 010:318.197    - DWT_FUNC[1]
T988C 010:318.209 - 0.466ms returns 1
T988C 010:318.239 JLINK_ReadMemU32(0xE0001048, 0x0001 Items, ...)
T988C 010:318.253   CPU_ReadMem(4 bytes @ 0xE0001048)
T988C 010:318.633   Data:  00 00 00 00
T988C 010:318.654    - DWT_FUNC[2]
T988C 010:318.666 - 0.431ms returns 1
T988C 010:318.680 JLINK_ReadMemU32(0xE0001058, 0x0001 Items, ...)
T988C 010:318.711   CPU_ReadMem(4 bytes @ 0xE0001058)
T988C 010:319.157   Data:  00 00 00 00
T988C 010:319.175    - DWT_FUNC[3]
T988C 010:319.187 - 0.510ms returns 1
T988C 010:319.206   JLINK_ReadMemEx(0x08000550, 0x003C Bytes, ..., Flags = 0x02000000)
T988C 010:319.224   CPU_ReadMem(128 bytes @ 0x08000540)
T988C 010:320.213    -- Updating C cache (128 bytes @ 0x08000540)
T988C 010:320.251    -- Read from C cache (60 bytes @ 0x08000550)
T988C 010:320.265   Data:  BE FF 01 28 00 D1 70 BD FF F7 E0 FF 05 46 00 20 ...
T988C 010:320.294 - 1.110ms returns 0x3C
T988C 010:320.326   JLINK_ReadMemEx(0x08000550, 0x0002 Bytes, ..., Flags = 0x02000000)
T988C 010:320.339    -- Read from C cache (2 bytes @ 0x08000550)
T988C 010:320.350   Data:  BE FF
T988C 010:320.362 - 0.040ms returns 0x02
T988C 010:320.374   JLINK_ReadMemEx(0x08000552, 0x0002 Bytes, ..., Flags = 0x02000000)
T988C 010:320.385    -- Read from C cache (2 bytes @ 0x08000552)
T988C 010:320.397   Data:  01 28
T988C 010:320.408 - 0.039ms returns 0x02
T988C 010:320.424 JLINK_Step()
T988C 010:320.435    -- Read from C cache (2 bytes @ 0x08000552)
T988C 010:320.448   CPU_ReadMem(4 bytes @ 0xE0001004)
T988C 010:320.947    -- Simulated
T988C 010:320.964 - 0.544ms returns 0x00
T988C 010:320.981 JLINK_ReadReg(R15 (PC))
T988C 010:320.992 - 0.014ms returns 0x08000554
T988C 010:321.003 JLINK_ReadReg(XPSR)
T988C 010:321.011 - 0.012ms returns 0x61000000
T988C 010:321.029 JLINK_Step()
T988C 010:321.040    -- Read from C cache (2 bytes @ 0x08000554)
T988C 010:321.075    -- Simulated
T988C 010:321.087 - 0.061ms returns 0x00
T988C 010:321.117 JLINK_ReadReg(R15 (PC))
T988C 010:321.142 - 0.029ms returns 0x08000556
T988C 010:321.153 JLINK_ReadReg(XPSR)
T988C 010:321.161 - 0.012ms returns 0x61000000
T988C 010:321.210 JLINK_ReadReg(R0)
T988C 010:321.219 - 0.013ms returns 0x00000001
T988C 010:321.230 JLINK_ReadReg(R1)
T988C 010:321.238 - 0.012ms returns 0x00001000
T988C 010:321.248 JLINK_ReadReg(R2)
T988C 010:321.256 - 0.012ms returns 0x40003800
T988C 010:321.266 JLINK_ReadReg(R3)
T988C 010:321.275 - 0.012ms returns 0x00000001
T988C 010:321.285 JLINK_ReadReg(R4)
T988C 010:321.293 - 0.012ms returns 0x05DEFF35
T988C 010:321.303 JLINK_ReadReg(R5)
T988C 010:321.311 - 0.012ms returns 0x00000000
T988C 010:321.322 JLINK_ReadReg(R6)
T988C 010:321.330 - 0.012ms returns 0x06060606
T988C 010:321.340 JLINK_ReadReg(R7)
T988C 010:321.348 - 0.012ms returns 0x07070707
T988C 010:321.358 JLINK_ReadReg(R8)
T988C 010:321.366 - 0.012ms returns 0x08080808
T988C 010:321.377 JLINK_ReadReg(R9)
T988C 010:321.385 - 0.012ms returns 0x09090909
T988C 010:321.395 JLINK_ReadReg(R10)
T988C 010:321.403 - 0.012ms returns 0x10101010
T988C 010:321.413 JLINK_ReadReg(R11)
T988C 010:321.421 - 0.012ms returns 0x11111111
T988C 010:321.432 JLINK_ReadReg(R12)
T988C 010:321.440 - 0.012ms returns 0x00001000
T988C 010:321.450 JLINK_ReadReg(R13 (SP))
T988C 010:321.458 - 0.012ms returns 0x200003E4
T988C 010:321.469 JLINK_ReadReg(R14)
T988C 010:321.477 - 0.012ms returns 0x08000369
T988C 010:321.487 JLINK_ReadReg(R15 (PC))
T988C 010:321.495 - 0.012ms returns 0x08000556
T988C 010:321.505 JLINK_ReadReg(XPSR)
T988C 010:321.513 - 0.012ms returns 0x61000000
T988C 010:321.523 JLINK_ReadReg(MSP)
T988C 010:321.532 - 0.012ms returns 0x20007788
T988C 010:321.542 JLINK_ReadReg(PSP)
T988C 010:321.550 - 0.012ms returns 0x200003E4
T988C 010:321.560 JLINK_ReadReg(CFBP)
T988C 010:321.568 - 0.012ms returns 0x02000000
T2BC0 010:321.926   JLINK_ReadMemEx(0x200003F0, 0x0004 Bytes, ..., Flags = 0x02000000)
T2BC0 010:321.950   CPU_ReadMem(64 bytes @ 0x200003C0)
T2BC0 010:322.667    -- Updating C cache (64 bytes @ 0x200003C0)
T2BC0 010:322.685    -- Read from C cache (4 bytes @ 0x200003F0)
T2BC0 010:322.698   Data:  0D 02 00 08
T2BC0 010:322.709 - 0.788ms returns 0x04
T2BC0 010:322.727   JLINK_ReadMemEx(0x200003E4, 0x0004 Bytes, ..., Flags = 0x02000000)
T2BC0 010:322.741    -- Read from C cache (4 bytes @ 0x200003E4)
T2BC0 010:322.753   Data:  04 04 04 04
T2BC0 010:322.764 - 0.042ms returns 0x04
T2BC0 010:322.775   JLINK_ReadMemEx(0x200003E8, 0x0004 Bytes, ..., Flags = 0x02000000)
T2BC0 010:322.788    -- Read from C cache (4 bytes @ 0x200003E8)
T2BC0 010:322.799   Data:  05 05 05 05
T2BC0 010:322.810 - 0.039ms returns 0x04
T2BC0 010:322.821   JLINK_ReadMemEx(0x200003EC, 0x0004 Bytes, ..., Flags = 0x02000000)
T2BC0 010:322.833    -- Read from C cache (4 bytes @ 0x200003EC)
T2BC0 010:322.844   Data:  06 06 06 06
T2BC0 010:322.856 - 0.039ms returns 0x04
T2BC0 010:322.867   JLINK_ReadMemEx(0x200003F0, 0x0004 Bytes, ..., Flags = 0x02000000)
T2BC0 010:322.879    -- Read from C cache (4 bytes @ 0x200003F0)
T2BC0 010:322.890   Data:  0D 02 00 08
T2BC0 010:322.901 - 0.039ms returns 0x04
T2BC0 010:322.913   JLINK_ReadMemEx(0x20000400, 0x0004 Bytes, ..., Flags = 0x02000000)
T2BC0 010:322.927   CPU_ReadMem(64 bytes @ 0x20000400)
T2BC0 010:323.635    -- Updating C cache (64 bytes @ 0x20000400)
T2BC0 010:323.653    -- Read from C cache (4 bytes @ 0x20000400)
T2BC0 010:323.665   Data:  23 C5 00 08
T2BC0 010:323.677 - 0.768ms returns 0x04
T2BC0 010:323.699   JLINK_ReadMemEx(0x20000400, 0x0004 Bytes, ..., Flags = 0x02000000)
T2BC0 010:323.719    -- Read from C cache (4 bytes @ 0x20000400)
T2BC0 010:323.730   Data:  23 C5 00 08
T2BC0 010:323.742 - 0.047ms returns 0x04
T2BC0 010:323.760   JLINK_ReadMemEx(0x20000410, 0x0004 Bytes, ..., Flags = 0x02000000)
T2BC0 010:323.773    -- Read from C cache (4 bytes @ 0x20000410)
T2BC0 010:323.785   Data:  FF 35 00 00
T2BC0 010:323.796 - 0.040ms returns 0x04
T2BC0 010:323.811   JLINK_ReadMemEx(0x20000404, 0x0004 Bytes, ..., Flags = 0x02000000)
T2BC0 010:323.824    -- Read from C cache (4 bytes @ 0x20000404)
T2BC0 010:323.835   Data:  00 00 00 00
T2BC0 010:323.846 - 0.039ms returns 0x04
T2BC0 010:323.857   JLINK_ReadMemEx(0x20000408, 0x0004 Bytes, ..., Flags = 0x02000000)
T2BC0 010:323.869    -- Read from C cache (4 bytes @ 0x20000408)
T2BC0 010:323.881   Data:  00 00 00 00
T2BC0 010:323.892 - 0.039ms returns 0x04
T2BC0 010:323.903   JLINK_ReadMemEx(0x2000040C, 0x0004 Bytes, ..., Flags = 0x02000000)
T2BC0 010:323.915    -- Read from C cache (4 bytes @ 0x2000040C)
T2BC0 010:323.926   Data:  02 00 00 DE
T2BC0 010:323.937 - 0.039ms returns 0x04
T2BC0 010:323.948   JLINK_ReadMemEx(0x20000410, 0x0004 Bytes, ..., Flags = 0x02000000)
T2BC0 010:323.960    -- Read from C cache (4 bytes @ 0x20000410)
T2BC0 010:323.971   Data:  FF 35 00 00
T2BC0 010:323.983 - 0.039ms returns 0x04
T2BC0 022:289.977 JLINK_SetResetType(JLINKARM_CM3_RESET_TYPE_NORMAL)
T2BC0 022:290.008 - 0.036ms returns JLINKARM_CM3_RESET_TYPE_NORMAL
T2BC0 022:290.022 JLINK_Reset()
T2BC0 022:290.047   CPU_WriteMem(4 bytes @ 0xE000EDF0)
T2BC0 022:290.517   CPU_WriteMem(4 bytes @ 0xE000EDFC)
T2BC0 022:290.990   Reset: Halt core after reset via DEMCR.VC_CORERESET.
T2BC0 022:291.021   Reset: Reset device via AIRCR.SYSRESETREQ.
T2BC0 022:291.038   CPU_WriteMem(4 bytes @ 0xE000ED0C)
T2BC0 022:343.523   CPU_ReadMem(4 bytes @ 0xE000EDF0)
T2BC0 022:343.958   CPU_ReadMem(4 bytes @ 0xE000EDF0)
T2BC0 022:344.391   CPU_WriteMem(4 bytes @ 0xE000EDF0)
T2BC0 022:344.834   CPU_WriteMem(4 bytes @ 0xE000EDFC)
T2BC0 022:350.498   CPU_ReadMem(4 bytes @ 0xE000EDF0)
T2BC0 022:352.947   CPU_WriteMem(4 bytes @ 0xE000EDFC)
T2BC0 022:353.351   CPU_WriteMem(4 bytes @ 0xE0001028)
T2BC0 022:353.697   CPU_WriteMem(4 bytes @ 0xE0001038)
T2BC0 022:353.967   CPU_WriteMem(4 bytes @ 0xE0001048)
T2BC0 022:354.235   CPU_WriteMem(4 bytes @ 0xE0001058)
T2BC0 022:354.518   CPU_WriteMem(4 bytes @ 0xE0002000)
T2BC0 022:354.787   CPU_ReadMem(4 bytes @ 0xE000EDFC)
T2BC0 022:355.086   CPU_ReadMem(4 bytes @ 0xE0001000)
T2BC0 022:355.389 - 65.377ms
T2BC0 022:355.462 JLINK_ReadReg(R15 (PC))
T2BC0 022:355.478 - 0.020ms returns 0x0800DD9C
T2BC0 022:355.491 JLINK_ReadReg(XPSR)
T2BC0 022:355.502 - 0.015ms returns 0x01000000
T2BC0 022:359.968   JLINK_ReadMemEx(0x0800DD9C, 0x003C Bytes, ..., Flags = 0x02000000)
T2BC0 022:360.008   CPU_ReadMem(128 bytes @ 0x0800DD80)
T2BC0 022:361.322    -- Updating C cache (128 bytes @ 0x0800DD80)
T2BC0 022:361.345    -- Read from C cache (60 bytes @ 0x0800DD9C)
T2BC0 022:361.361   Data:  09 48 80 47 09 48 00 47 FE E7 FE E7 FE E7 FE E7 ...
T2BC0 022:361.375 - 1.413ms returns 0x3C
T2BC0 022:361.393   JLINK_ReadMemEx(0x0800DD9C, 0x0002 Bytes, ..., Flags = 0x02000000)
T2BC0 022:361.409    -- Read from C cache (2 bytes @ 0x0800DD9C)
T2BC0 022:361.423   Data:  09 48
T2BC0 022:361.437 - 0.049ms returns 0x02
T2BC0 022:361.451   JLINK_ReadMemEx(0x0800DD9E, 0x0002 Bytes, ..., Flags = 0x02000000)
T2BC0 022:361.465    -- Read from C cache (2 bytes @ 0x0800DD9E)
T2BC0 022:361.479   Data:  80 47
T2BC0 022:361.493 - 0.047ms returns 0x02
T2BC0 022:361.517   JLINK_ReadMemEx(0x0800DD9E, 0x0002 Bytes, ..., Flags = 0x02000000)
T2BC0 022:361.532    -- Read from C cache (2 bytes @ 0x0800DD9E)
T2BC0 022:361.546   Data:  80 47
T2BC0 022:361.560 - 0.048ms returns 0x02
T2BC0 022:361.573   JLINK_ReadMemEx(0x0800DDA0, 0x003C Bytes, ..., Flags = 0x02000000)
T2BC0 022:361.588    -- Read from C cache (60 bytes @ 0x0800DDA0)
T2BC0 022:361.603   Data:  09 48 00 47 FE E7 FE E7 FE E7 FE E7 FE E7 FE E7 ...
T2BC0 022:361.616 - 0.048ms returns 0x3C
T2BC0 022:361.633   JLINK_ReadMemEx(0x0800DDA0, 0x0002 Bytes, ..., Flags = 0x02000000)
T2BC0 022:361.650    -- Read from C cache (2 bytes @ 0x0800DDA0)
T2BC0 022:361.664   Data:  09 48
T2BC0 022:361.677 - 0.049ms returns 0x02
T988C 023:421.106   JLINK_ReadMemEx(0x0800DD9C, 0x0002 Bytes, ..., Flags = 0x02000000)
T988C 023:421.138    -- Read from C cache (2 bytes @ 0x0800DD9C)
T988C 023:421.150   Data:  09 48
T988C 023:421.163 - 0.062ms returns 0x02
T988C 023:421.180   JLINK_SetBPEx(Addr = 0x0800054E, Type = 0xFFFFFFF2)
T988C 023:421.196 - 0.020ms returns 0x00000006
T988C 023:421.212 JLINK_Go()
T988C 023:421.610   CPU_WriteMem(4 bytes @ 0xE0002000)
T988C 023:422.099   CPU_ReadMem(4 bytes @ 0xE0001000)
T988C 023:422.522   CPU_WriteMem(4 bytes @ 0xE0002008)
T988C 023:422.542   CPU_WriteMem(4 bytes @ 0xE000200C)
T988C 023:422.554   CPU_WriteMem(4 bytes @ 0xE0002010)
T988C 023:422.566   CPU_WriteMem(4 bytes @ 0xE0002014)
T988C 023:422.577   CPU_WriteMem(4 bytes @ 0xE0002018)
T988C 023:422.608   CPU_WriteMem(4 bytes @ 0xE000201C)
T988C 023:423.696   CPU_WriteMem(4 bytes @ 0xE0001004)
T988C 023:424.665 - 3.497ms
T988C 023:525.473 JLINK_IsHalted()
T988C 023:527.554 - 2.109ms returns TRUE
T988C 023:527.595 JLINK_Halt()
T988C 023:527.620 - 0.028ms returns 0x00
T988C 023:527.631 JLINK_IsHalted()
T988C 023:527.639 - 0.011ms returns TRUE
T988C 023:527.649 JLINK_IsHalted()
T988C 023:527.657 - 0.011ms returns TRUE
T988C 023:527.667 JLINK_IsHalted()
T988C 023:527.675 - 0.011ms returns TRUE
T988C 023:527.688 JLINK_ReadReg(R15 (PC))
T988C 023:527.699 - 0.014ms returns 0x0800054E
T988C 023:527.709 JLINK_ReadReg(XPSR)
T988C 023:527.718 - 0.012ms returns 0x21000000
T988C 023:527.733 JLINK_ClrBPEx(BPHandle = 0x00000006)
T988C 023:527.742 - 0.012ms returns 0x00
T988C 023:527.758 JLINK_ReadMemU32(0xE000ED30, 0x0001 Items, ...)
T988C 023:527.771   CPU_ReadMem(4 bytes @ 0xE000ED30)
T988C 023:528.351   Data:  02 00 00 00
T988C 023:528.408 - 0.654ms returns 1
T988C 023:528.442 JLINK_ReadMemU32(0xE0001028, 0x0001 Items, ...)
T988C 023:528.474   CPU_ReadMem(4 bytes @ 0xE0001028)
T988C 023:528.931   Data:  00 00 00 00
T988C 023:528.953    - DWT_FUNC[0]
T988C 023:528.965 - 0.527ms returns 1
T988C 023:528.979 JLINK_ReadMemU32(0xE0001038, 0x0001 Items, ...)
T988C 023:528.994   CPU_ReadMem(4 bytes @ 0xE0001038)
T988C 023:529.410   Data:  00 02 00 00
T988C 023:529.446    - DWT_FUNC[1]
T988C 023:529.458 - 0.483ms returns 1
T988C 023:529.473 JLINK_ReadMemU32(0xE0001048, 0x0001 Items, ...)
T988C 023:529.487   CPU_ReadMem(4 bytes @ 0xE0001048)
T988C 023:529.813   Data:  00 00 00 00
T988C 023:529.831    - DWT_FUNC[2]
T988C 023:529.842 - 0.373ms returns 1
T988C 023:529.856 JLINK_ReadMemU32(0xE0001058, 0x0001 Items, ...)
T988C 023:529.870   CPU_ReadMem(4 bytes @ 0xE0001058)
T988C 023:530.230   Data:  00 00 00 00
T988C 023:530.248    - DWT_FUNC[3]
T988C 023:530.260 - 0.408ms returns 1
T988C 023:530.336 JLINK_ReadReg(R0)
T988C 023:530.384 - 0.052ms returns 0x40003800
T988C 023:530.396 JLINK_ReadReg(R1)
T988C 023:530.405 - 0.013ms returns 0x00000001
T988C 023:530.416 JLINK_ReadReg(R2)
T988C 023:530.424 - 0.012ms returns 0x0000037C
T988C 023:530.435 JLINK_ReadReg(R3)
T988C 023:530.460 - 0.028ms returns 0x00000007
T988C 023:530.471 JLINK_ReadReg(R4)
T988C 023:530.479 - 0.012ms returns 0x05DEFF35
T988C 023:530.489 JLINK_ReadReg(R5)
T988C 023:530.497 - 0.012ms returns 0x00000000
T988C 023:530.507 JLINK_ReadReg(R6)
T988C 023:530.516 - 0.012ms returns 0x06060606
T988C 023:530.526 JLINK_ReadReg(R7)
T988C 023:530.534 - 0.012ms returns 0x07070707
T988C 023:530.544 JLINK_ReadReg(R8)
T988C 023:530.552 - 0.012ms returns 0x08080808
T988C 023:530.563 JLINK_ReadReg(R9)
T988C 023:530.571 - 0.012ms returns 0x09090909
T988C 023:530.581 JLINK_ReadReg(R10)
T988C 023:530.589 - 0.012ms returns 0x10101010
T988C 023:530.600 JLINK_ReadReg(R11)
T988C 023:530.608 - 0.012ms returns 0x11111111
T988C 023:530.618 JLINK_ReadReg(R12)
T988C 023:530.626 - 0.012ms returns 0x00001000
T988C 023:530.636 JLINK_ReadReg(R13 (SP))
T988C 023:530.650 - 0.017ms returns 0x200003E4
T988C 023:530.661 JLINK_ReadReg(R14)
T988C 023:530.669 - 0.012ms returns 0x0800107D
T988C 023:530.679 JLINK_ReadReg(R15 (PC))
T988C 023:530.687 - 0.012ms returns 0x0800054E
T988C 023:530.698 JLINK_ReadReg(XPSR)
T988C 023:530.706 - 0.012ms returns 0x21000000
T988C 023:530.716 JLINK_ReadReg(MSP)
T988C 023:530.724 - 0.012ms returns 0x20007788
T988C 023:530.734 JLINK_ReadReg(PSP)
T988C 023:530.742 - 0.012ms returns 0x200003E4
T988C 023:530.753 JLINK_ReadReg(CFBP)
T988C 023:530.761 - 0.012ms returns 0x02000000
T2BC0 023:531.101   JLINK_ReadMemEx(0x200003F0, 0x0004 Bytes, ..., Flags = 0x02000000)
T2BC0 023:531.126   CPU_ReadMem(64 bytes @ 0x200003C0)
T2BC0 023:531.856    -- Updating C cache (64 bytes @ 0x200003C0)
T2BC0 023:531.874    -- Read from C cache (4 bytes @ 0x200003F0)
T2BC0 023:531.886   Data:  0D 02 00 08
T2BC0 023:531.898 - 0.802ms returns 0x04
T2BC0 023:531.915   JLINK_ReadMemEx(0x200003E4, 0x0004 Bytes, ..., Flags = 0x02000000)
T2BC0 023:531.930    -- Read from C cache (4 bytes @ 0x200003E4)
T2BC0 023:531.941   Data:  04 04 04 04
T2BC0 023:531.953 - 0.042ms returns 0x04
T2BC0 023:531.964   JLINK_ReadMemEx(0x200003E8, 0x0004 Bytes, ..., Flags = 0x02000000)
T2BC0 023:531.976    -- Read from C cache (4 bytes @ 0x200003E8)
T2BC0 023:531.987   Data:  05 05 05 05
T2BC0 023:531.999 - 0.039ms returns 0x04
T2BC0 023:532.009   JLINK_ReadMemEx(0x200003EC, 0x0004 Bytes, ..., Flags = 0x02000000)
T2BC0 023:532.021    -- Read from C cache (4 bytes @ 0x200003EC)
T2BC0 023:532.033   Data:  06 06 06 06
T2BC0 023:532.044 - 0.039ms returns 0x04
T2BC0 023:532.055   JLINK_ReadMemEx(0x200003F0, 0x0004 Bytes, ..., Flags = 0x02000000)
T2BC0 023:532.067    -- Read from C cache (4 bytes @ 0x200003F0)
